;$FILEVERSION=2.0
;$STARTTIME=45800.5307448727
;$COLUMNS=N,O,T,I,d,l,D
;
;   Start time: 2025-05-23 12:44:16.357.0
;   Generated by PCAN-View v5.1.1.908
;   Message   Time    Type ID     Rx/Tx
;   Number    Offset  |    [hex]  |  Data Length
;   |         [ms]    |    |      |  |  Data [hex] ...
;   |         |       |    |      |  |  |
;---+-- ------+------ +- --+----- +- +- +- +- -- -- -- -- -- -- --
      1      9420.644 DT 0A100101 Tx 3  01 00 00 
      2      9423.024 DT 0A100100 Rx 8  01 53 49 4D 32 30 30 00 
      3     12510.192 DT 0A100101 Tx 3  02 00 00 
      4     12515.236 DT 0A100100 Rx 8  02 20 78 4E 78 00 00 00 
      5     14765.511 DT 0A100101 Tx 3  03 00 00 
      6     14768.015 DT 0A100100 Rx 8  03 00 00 00 00 00 00 00 
      7     16602.270 DT 0A100101 Tx 3  04 00 00 
      8     16606.152 DT 0A100100 Rx 8  04 00 00 00 00 00 00 00 
      9     18902.084 DT 0A100101 Tx 3  05 00 00 
     10     18904.072 DT 0A100100 Rx 8  05 01 00 00 00 00 00 00 
     11     69870.037 DT 0A100101 Tx 3  06 00 00 
     12     69875.182 DT 0A100100 Rx 8  06 55 4C 3A 00 00 00 00 
     13     71846.482 DT 0A100101 Tx 3  07 00 00 
     14     71848.318 DT 0A100100 Rx 8  07 00 00 00 00 00 00 00 
     15     76949.890 DT 0A100101 Tx 3  08 00 00 
     16     76953.472 DT 0A100100 Rx 8  08 00 00 00 00 00 00 00 
     17     78616.412 DT 0A100101 Tx 3  09 00 00 
     18     78621.879 DT 0A100100 Rx 8  09 41 5F 9B AF 00 00 00 
     19     79621.732 DT 0A100101 Tx 3  0A 00 00 
     20     79625.857 DT 0A100100 Rx 8  0A 1E 7B B4 21 00 00 00 
     21     80845.915 DT 0A100101 Tx 3  0B 00 00 
     22     80849.707 DT 0A100100 Rx 8  0B FD F5 73 B8 00 00 00 
     23     83332.324 DT 0A100101 Tx 3  0C 00 00 
     24     83337.336 DT 0A100100 Rx 8  0C 54 56 EE 7F 00 00 00 
     25     84348.130 DT 0A100101 Tx 3  60 00 00 
     26     84351.315 DT 0A100100 Rx 8  60 00 00 2C E7 00 00 00 
     27     86469.924 DT 0A100101 Tx 3  61 00 00 
     28     86474.116 DT 0A100100 Rx 8  61 00 00 2A 39 00 00 00 
     29     87376.084 DT 0A100101 Tx 3  62 00 00 
     30     87378.314 DT 0A100100 Rx 8  62 FF FF FD A8 00 00 00 
     31     88190.240 DT 0A100101 Tx 3  63 00 00 
     32     88192.471 DT 0A100100 Rx 8  63 FF FF FA D3 00 00 00 
     33     90784.277 DT 0A100101 Tx 3  64 00 00 
     34     90784.651 DT 0A100100 Rx 8  64 00 5E C4 EA 00 00 00 
     35     92038.251 DT 0A100101 Tx 3  65 00 00 
     36     92038.388 DT 0A100100 Rx 8  65 00 00 88 3E 00 00 00 
     37     93123.950 DT 0A100101 Tx 3  66 00 00 
     38     93127.238 DT 0A100100 Rx 8  66 00 00 31 BC 00 00 00 
     39     94007.017 DT 0A100101 Tx 3  67 00 00 
     40     94011.451 DT 0A100100 Rx 8  67 00 00 2C 95 00 00 00 
     41     94974.397 DT 0A100101 Tx 3  6F 00 00 
     42     94975.463 DT 0A100100 Rx 8  6F 00 02 88 CC 00 00 00 
     43     99675.523 DT 0A100101 Tx 3  E0 00 00 
     44     99675.677 DT 0A100100 Rx 8  E0 85 00 00 00 00 00 00 
     45    100713.334 DT 0A100101 Tx 3  E1 00 00 
     46    100714.577 DT 0A100100 Rx 8  E1 85 00 00 00 00 00 00 
     47    101277.290 DT 0A100101 Tx 3  E2 00 00 
     48    101279.174 DT 0A100100 Rx 8  E2 85 00 00 00 00 00 00 
     49    101797.414 DT 0A100101 Tx 3  E3 00 00 
     50    101798.657 DT 0A100100 Rx 8  E3 85 00 00 00 00 00 00 
     51    102455.505 DT 0A100101 Tx 3  E4 00 00 
     52    102457.969 DT 0A100100 Rx 8  E4 85 00 00 00 05 53 00 
     53    103035.541 DT 0A100101 Tx 3  E5 00 00 
     54    103037.318 DT 0A100100 Rx 8  E5 85 00 E8 00 00 00 00 
     55    103795.346 DT 0A100101 Tx 3  E6 00 00 
     56    103796.744 DT 0A100100 Rx 8  E6 85 00 00 00 00 00 00 
     57    105391.498 DT 0A100101 Tx 3  E7 00 00 
     58    105395.258 DT 0A100100 Rx 8  E7 85 00 00 00 00 00 00 
     59    106320.501 DT 0A100101 Tx 3  F0 00 00 
     60    106324.470 DT 0A100100 Rx 8  F0 05 53 00 00 00 00 00 
     61    107211.416 DT 0A100101 Tx 3  F1 00 00 
     62    107213.713 DT 0A100100 Rx 8  F1 00 64 01 F4 00 00 00 
